Freq.	-V(Vr)/V(Vf)
Step Information: L=100µ  (Step: 1/10)
2.00000000000000e+01	(1.37672284170200e+02dB,-9.10327863421494e+01°)
2.51785082358833e+01	(1.35670778494650e+02dB,-9.14768471823196e+01°)
3.16978638492223e+01	(1.33668325837837e+02dB,-9.19992958851126e+01°)
3.99052462993776e+01	(1.31664398993593e+02dB,-9.26276947085112e+01°)
5.02377286301916e+01	(1.29658155864264e+02dB,-9.33949922491778e+01°)
6.32455532033676e+01	(1.27648262672427e+02dB,-9.43410244138605e+01°)
7.96214341106995e+01	(1.25632618453757e+02dB,-9.55141373982563e+01°)
1.00237446725454e+02	(1.23607932275834e+02dB,-9.69727848752784e+01°)
1.26191468896039e+02	(1.21569088403140e+02dB,-9.87867462792600e+01°)
1.58865646944856e+02	(1.19508225508005e+02dB,-1.01037229310017e+02°)
2.00000000000000e+02	(1.17413476926073e+02dB,-1.03814484613225e+02°)
2.51785082358834e+02	(1.15267420408187e+02dB,-1.07210663114564e+02°)
3.16978638492223e+02	(1.13045552248711e+02dB,-1.11304827210182e+02°)
3.99052462993776e+02	(1.10715607648259e+02dB,-1.16137455765104e+02°)
5.02377286301916e+02	(1.08239177999851e+02dB,-1.21675817405232e+02°)
6.32455532033676e+02	(1.05577177629372e+02dB,-1.27781192485634e+02°)
7.96214341106995e+02	(1.02699143555372e+02dB,-1.34200096813085e+02°)
1.00237446725455e+03	(9.95929646620059e+01dB,-1.40599967600672e+02°)
1.26191468896039e+03	(9.62693440999082e+01dB,-1.46643775908734e+02°)
1.58865646944856e+03	(9.27578877917141e+01dB,-1.52066092846092e+02°)
2.00000000000000e+03	(8.90975738515697e+01dB,-1.56711755114300e+02°)
2.51785082358834e+03	(8.53273063161851e+01dB,-1.60529183589070e+02°)
3.16978638492223e+03	(8.14802052552943e+01dB,-1.63537805651254e+02°)
3.99052462993776e+03	(7.75818459979080e+01dB,-1.65792215222505e+02°)
5.02377286301917e+03	(7.36509514405606e+01dB,-1.67354854737011e+02°)
6.32455532033677e+03	(6.97010749816839e+01dB,-1.68279070535551e+02°)
7.96214341106996e+03	(6.57424443150079e+01dB,-1.68600063589782e+02°)
1.00237446725455e+04	(6.17836741250113e+01dB,-1.68330774975571e+02°)
1.26191468896039e+04	(5.78333529425300e+01dB,-1.67460741382772e+02°)
1.58865646944857e+04	(5.39016275999499e+01dB,-1.65957250723842e+02°)
2.00000000000000e+04	(5.00019104411501e+01dB,-1.63769429363783e+02°)
2.51785082358834e+04	(4.61527208267122e+01dB,-1.60837189331238e+02°)
3.16978638492223e+04	(4.23793824925484e+01dB,-1.57107982455285e+02°)
3.99052462993777e+04	(3.87147681304119e+01dB,-1.52563908135864e+02°)
5.02377286301917e+04	(3.51976456477711e+01dB,-1.47257563392919e+02°)
6.32455532033677e+04	(3.18671088973006e+01dB,-1.41345259436176e+02°)
7.96214341106996e+04	(2.87532132008383e+01dB,-1.35095217449994e+02°)
1.00237446725455e+05	(2.58673497625171e+01dB,-1.28850805260661e+02°)
1.26191468896039e+05	(2.31980632109073e+01dB,-1.22955602101682e+02°)
1.58865646944857e+05	(2.07152410165095e+01dB,-1.17678513092335e+02°)
2.00000000000000e+05	(1.83797362951863e+01dB,-1.13177121327194e+02°)
2.51785082358834e+05	(1.61527185548260e+01dB,-1.09506005098109e+02°)
3.16978638492223e+05	(1.40012226837339e+01dB,-1.06650053549683e+02°)
3.99052462993777e+05	(1.18997788439324e+01dB,-1.04560396157839e+02°)
5.02377286301917e+05	(9.82964045317411e+00dB,-1.03181572878370e+02°)
6.32455532033677e+05	(7.77705572727969e+00dB,-1.02468319995727e+02°)
7.96214341106997e+05	(5.73139495014634e+00dB,-1.02394498956586e+02°)
1.00237446725455e+06	(3.68342036440287e+00dB,-1.02957126882708e+02°)
1.26191468896039e+06	(1.62369429586011e+00dB,-1.04177531817944e+02°)
1.58865646944857e+06	(-4.59012065529613e-01dB,-1.06100430784048e+02°)
2.00000000000001e+06	(-2.57947677515021e+00dB,-1.08790284499857e+02°)
2.51785082358834e+06	(-4.75798235874638e+00dB,-1.12322535680176e+02°)
3.16978638492224e+06	(-7.02205579475280e+00dB,-1.16766221222839e+02°)
3.99052462993777e+06	(-9.40685786705515e+00dB,-1.22156345869136e+02°)
5.02377286301918e+06	(-1.19525057508213e+01dB,-1.28461773015026e+02°)
6.32455532033678e+06	(-1.46970368649773e+01dB,-1.35567000548863e+02°)
7.96214341106997e+06	(-1.76659852309868e+01dB,-1.43296615054419e+02°)
1.00237446725455e+07	(-2.08626042745520e+01dB,-1.51504898664261e+02°)
1.26191468896039e+07	(-2.42622834561950e+01dB,-1.60228014773132e+02°)
1.58865646944857e+07	(-2.78063443094665e+01dB,-1.69878692231252e+02°)
2.00000000000001e+07	(-3.13733052722270e+01dB,1.78549603511059e+02°)
2.51785082358834e+07	(-3.46845114640620e+01dB,1.63502093430943e+02°)
3.16978638492224e+07	(-3.71648851944687e+01dB,1.44138557708889e+02°)
3.99052462993777e+07	(-3.81898026877198e+01dB,1.23357866116450e+02°)
5.02377286301918e+07	(-3.78792343384880e+01dB,1.06553036927842e+02°)
6.32455532033678e+07	(-3.68945418024952e+01dB,9.59529478015352e+01°)
7.96214341106997e+07	(-3.55876910273840e+01dB,9.07917291242867e+01°)
1.00000000000000e+08	(-3.40022266085399e+01dB,8.89404720063169e+01°)
Step Information: L=200µ  (Step: 2/10)
2.00000000000000e+01	(1.37664205904266e+02dB,-9.24441374654258e+01°)
2.51785082358833e+01	(1.35657986851588e+02dB,-9.32521156836888e+01°)
3.16978638492223e+01	(1.33648081449931e+02dB,-9.42312066524827e+01°)
3.99052462993776e+01	(1.31632386416105e+02dB,-9.54315025908802e+01°)
5.02377286301916e+01	(1.29607600638819e+02dB,-9.69128768870097e+01°)
6.32455532033676e+01	(1.27568588821154e+02dB,-9.87462657843544e+01°)
7.96214341106995e+01	(1.25507458101834e+02dB,-1.01013808939941e+02°)
1.00237446725454e+02	(1.23412295261255e+02dB,-1.03806473551203e+02°)
1.26191468896039e+02	(1.21265614785779e+02dB,-1.07216883262082e+02°)
1.58865646944856e+02	(1.19042836485905e+02dB,-1.11324262422777e+02°)
2.00000000000000e+02	(1.16711620871237e+02dB,-1.16168852435551e+02°)
2.51785082358834e+02	(1.14233518245140e+02dB,-1.21717245555055e+02°)
3.16978638492223e+02	(1.11569478555732e+02dB,-1.27829736385591e+02°)
3.99052462993776e+02	(1.08689178673571e+02dB,-1.34251922801284e+02°)
5.02377286301916e+02	(1.05580727530863e+02dB,-1.40650878158336e+02°)
6.32455532033676e+02	(1.02255051022646e+02dB,-1.46690007043997e+02°)
7.96214341106995e+02	(9.87419011227189e+01dB,-1.52104898413523e+02°)
1.00237446725455e+03	(9.50802977365762e+01dB,-1.56741514887552e+02°)
1.26191468896039e+03	(9.13091079732942e+01dB,-1.60549128464277e+02°)
1.58865646944856e+03	(8.74613796016240e+01dB,-1.63547608082562e+02°)
2.00000000000000e+03	(8.35626133827190e+01dB,-1.65791623142628e+02°)
2.51785082358834e+03	(7.96314717349284e+01dB,-1.67343425855234e+02°)
3.16978638492223e+03	(7.56814664104022e+01dB,-1.68255992490742e+02°)
3.99052462993776e+03	(7.17228018878776e+01dB,-1.68564025789735e+02°)
5.02377286301917e+03	(6.77640866905722e+01dB,-1.68279863164246e+02°)
6.32455532033677e+03	(6.38139198470372e+01dB,-1.67392337993946e+02°)
7.96214341106996e+03	(5.98824764843800e+01dB,-1.65867936671411e+02°)
1.00237446725455e+04	(5.59832171704534e+01dB,-1.63654895514606e+02°)
1.26191468896039e+04	(5.21347305153309e+01dB,-1.60692177810157e+02°)
1.58865646944857e+04	(4.83624261724477e+01dB,-1.56926282285029e+02°)
2.00000000000000e+04	(4.46992626561979e+01dB,-1.52338406783932e+02°)
2.51785082358834e+04	(4.11840588330413e+01dB,-1.46980275768807e+02°)
3.16978638492223e+04	(3.78558788606236e+01dB,-1.41007119010189e+02°)
3.99052462993777e+04	(3.47446416635528e+01dB,-1.34685328960473e+02°)
5.02377286301917e+04	(3.18615288440961e+01dB,-1.28355015961601e+02°)
6.32455532033677e+04	(2.91948962137889e+01dB,-1.22354632045077e+02°)
7.96214341106996e+04	(2.67145610191387e+01dB,-1.16946098192246e+02°)
1.00237446725455e+05	(2.43814710587671e+01dB,-1.12278387398534e+02°)
1.26191468896039e+05	(2.21570546690120e+01dB,-1.08395892821271e+02°)
1.58865646944857e+05	(2.00087667547751e+01dB,-1.05271449432134e+02°)
2.00000000000000e+05	(1.79117517106396e+01dB,-1.02841709859753e+02°)
2.51785082358834e+05	(1.58481582640738e+01dB,-1.01033653867235e+02°)
3.16978638492223e+05	(1.38055609891453e+01dB,-9.97807317726332e+01°)
3.99052462993777e+05	(1.17753127627578e+01dB,-9.90312820103810e+01°)
5.02377286301917e+05	(9.75113520465397e+00dB,-9.87523283192400e+01°)
6.32455532033677e+05	(7.72797662933037e+00dB,-9.89310235852214e+01°)
7.96214341106997e+05	(5.70105528414867e+00dB,-9.95750597683782e+01°)
1.00237446725455e+06	(3.66497315484301e+00dB,-1.00712646656060e+02°)
1.26191468896039e+06	(1.61277668172787e+00dB,-1.02392144476289e+02°)
1.58865646944857e+06	(-4.65170974969326e-01dB,-1.04680901786715e+02°)
2.00000000000001e+06	(-2.58263403038254e+00dB,-1.07661945941002e+02°)
2.51785082358834e+06	(-4.75925242528297e+00dB,-1.11425765479873e+02°)
3.16978638492224e+06	(-7.02214791931215e+00dB,-1.16053497985304e+02°)
3.99052462993777e+06	(-9.40622791846809e+00dB,-1.21589834507214e+02°)
5.02377286301918e+06	(-1.19514541753839e+01dB,-1.28011369759994e+02°)
6.32455532033678e+06	(-1.46957734824541e+01dB,-1.35208763301558e+02°)
7.96214341106997e+06	(-1.76646747550224e+01dB,-1.43011513872089e+02°)
1.00237446725455e+07	(-2.08614023666395e+01dB,-1.51277838255151e+02°)
1.26191468896039e+07	(-2.42613704830935e+01dB,-1.60047112650142e+02°)
1.58865646944857e+07	(-2.78059590260020e+01dB,-1.69734865969340e+02°)
2.00000000000001e+07	(-3.13737563661626e+01dB,1.78662548122670e+02°)
2.51785082358834e+07	(-3.46860441633718e+01dB,1.63586727385090e+02°)
3.16978638492224e+07	(-3.71671637503929e+01dB,1.44194384260090e+02°)
3.99052462993777e+07	(-3.81916866426687e+01dB,1.23387958347856e+02°)
5.02377286301918e+07	(-3.78801129579178e+01dB,1.06566944304842e+02°)
6.32455532033678e+07	(-3.68947541759702e+01dB,9.59586959742278e+01°)
7.96214341106997e+07	(-3.55876873418132e+01dB,9.07937125952293e+01°)
1.00000000000000e+08	(-3.40022040984596e+01dB,8.89410410717518e+01°)
Step Information: L=500µ  (Step: 3/10)
2.00000000000000e+01	(1.37608077264317e+02dB,-9.66501419654225e+01°)
2.51785082358833e+01	(1.35569488976151e+02dB,-9.85223311772492e+01°)
3.16978638492223e+01	(1.33508959609264e+02dB,-1.00817187043178e+02°)
3.99052462993776e+01	(1.31414682566217e+02dB,-1.03627526435039e+02°)
5.02377286301916e+01	(1.29269309663035e+02dB,-1.07047631400861e+02°)
6.32455532033676e+01	(1.27048423041517e+02dB,-1.11158471984849e+02°)
7.96214341106995e+01	(1.24719840540145e+02dB,-1.16002417109657e+02°)
1.00237446725454e+02	(1.22245199760291e+02dB,-1.21548738157842e+02°)
1.26191468896039e+02	(1.19585379080080e+02dB,-1.27660763812121e+02°)
1.58865646944856e+02	(1.16709767862855e+02dB,-1.34086755817011e+02°)
2.00000000000000e+02	(1.13606020759081e+02dB,-1.40495115404174e+02°)
2.51785082358834e+02	(1.10284602699494e+02dB,-1.46548761028609e+02°)
3.16978638492223e+02	(1.06774962647266e+02dB,-1.51981439277692e+02°)
3.99052462993776e+02	(1.03116033268761e+02dB,-1.56636912338523e+02°)
5.02377286301916e+02	(9.93467578257778e+01dB,-1.60462695338569e+02°)
6.32455532033676e+02	(9.55003340459508e+01dB,-1.63477625849941e+02°)
7.96214341106995e+02	(9.16024178885754e+01dB,-1.65735972787636e+02°)
1.00237446725455e+03	(8.76717983762625e+01dB,-1.67299998629229e+02°)
1.26191468896039e+03	(8.37220756318013e+01dB,-1.68222902881811e+02°)
1.58865646944856e+03	(7.97635054707016e+01dB,-1.68539689314397e+02°)
2.00000000000000e+03	(7.58047141660297e+01dB,-1.68262989878727e+02°)
2.51785082358834e+03	(7.18542865951180e+01dB,-1.67381866568636e+02°)
3.16978638492223e+03	(6.79223506409257e+01dB,-1.65862906568313e+02°)
3.99052462993776e+03	(6.40222834856538e+01dB,-1.63654227497513e+02°)
5.02377286301917e+03	(6.01725531153558e+01dB,-1.60694306653927e+02°)
6.32455532033677e+03	(5.63984203879346e+01dB,-1.56928572143463e+02°)
7.96214341106996e+03	(5.27326989967386e+01dB,-1.52336314720127e+02°)
1.00237446725455e+04	(4.92141328130507e+01dB,-1.46966366453040e+02°)
1.26191468896039e+04	(4.58818683521399e+01dB,-1.40970273239275e+02°)
1.58865646944857e+04	(4.27661183662461e+01dB,-1.34610633140246e+02°)
2.00000000000000e+04	(3.98785190727793e+01dB,-1.28224519877657e+02°)
2.51785082358834e+04	(3.72078860664934e+01dB,-1.22148444985457e+02°)
3.16978638492223e+04	(3.47243473414997e+01dB,-1.16642879915515e+02°)
3.99052462993777e+04	(3.23889659646830e+01dB,-1.11854693264137e+02°)
5.02377286301917e+04	(3.01631516441793e+01dB,-1.07824535529580e+02°)
6.32455532033677e+04	(2.80143064113865e+01dB,-1.04519323499887e+02°)
7.96214341106996e+04	(2.59175728356303e+01dB,-1.01867364991908e+02°)
1.00237446725455e+05	(2.38552118567681e+01dB,-9.97846500317851e+01°)
1.26191468896039e+05	(2.18150816811377e+01dB,-9.81906608919634e+01°)
1.58865646944857e+05	(1.97890638444064e+01dB,-9.70163034802239e+01°)
2.00000000000000e+05	(1.77717643850127e+01dB,-9.62070924719381e+01°)
2.51785082358834e+05	(1.57595407569291e+01dB,-9.57239257845889e+01°)
3.16978638492223e+05	(1.37497960230276e+01dB,-9.55428813477674e+01°)
3.99052462993777e+05	(1.17404550651648e+01dB,-9.56548155390440e+01°)
5.02377286301917e+05	(9.72954099644178e+00dB,-9.60651378677945e+01°)
6.32455532033677e+05	(7.71477972535818e+00dB,-9.67938949576833e+01°)
7.96214341106997e+05	(5.69316778326342e+00dB,-9.78761411112498e+01°)
1.00237446725455e+06	(3.66043947012398e+00dB,-9.93624486210061e+01°)
1.26191468896039e+06	(1.61035966794935e+00dB,-1.01319258334234e+02°)
1.58865646944857e+06	(-4.66253763100568e-01dB,-1.03828440479367e+02°)
2.00000000000001e+06	(-2.58287791301168e+00dB,-1.06984637314649e+02°)
2.51785082358834e+06	(-4.75897198914406e+00dB,-1.10887603086662e+02°)
3.16978638492224e+06	(-7.02154471875271e+00dB,-1.15625854757859e+02°)
3.99052462993777e+06	(-9.40543391483154e+00dB,-1.21249954268071e+02°)
5.02377286301918e+06	(-1.19505602276128e+01dB,-1.27741164257646e+02°)
6.32455532033678e+06	(-1.46948490355743e+01dB,-1.34993855459471e+02°)
7.96214341106997e+06	(-1.76637830145056e+01dB,-1.42840480632257e+02°)
1.00237446725455e+07	(-2.08606142662825e+01dB,-1.51141620375405e+02°)
1.26191468896039e+07	(-2.42607801164812e+01dB,-1.59938579773319e+02°)
1.58865646944857e+07	(-2.78057008548238e+01dB,-1.69648568180278e+02°)
2.00000000000001e+07	(-3.13740103348029e+01dB,1.78730327214851e+02°)
2.51785082358834e+07	(-3.46869545148451e+01dB,1.63637527424310e+02°)
3.16978638492224e+07	(-3.71685270701463e+01dB,1.44227898068211e+02°)
3.99052462993777e+07	(-3.81928159966147e+01dB,1.23406022168270e+02°)
5.02377286301918e+07	(-3.78806398747451e+01dB,1.06575291068499e+02°)
6.32455532033678e+07	(-3.68948815226926e+01dB,9.59621453080549e+01°)
7.96214341106997e+07	(-3.55876851098733e+01dB,9.07949027177757e+01°)
1.00000000000000e+08	(-3.40021905881520e+01dB,8.89413825079154e+01°)
Step Information: L=1m  (Step: 4/10)
2.00000000000000e+01	(1.37413343915931e+02dB,-1.03468808308383e+02°)
2.51785082358833e+01	(1.35267387277597e+02dB,-1.06934721032867e+02°)
3.16978638492223e+01	(1.33045606760604e+02dB,-1.11083989759447e+02°)
3.99052462993776e+01	(1.30715750678250e+02dB,-1.15960072283847e+02°)
5.02377286301916e+01	(1.28239418466938e+02dB,-1.21532613151469e+02°)
6.32455532033676e+01	(1.25577526558732e+02dB,-1.27664785718055e+02°)
7.96214341106995e+01	(1.22699607763835e+02dB,-1.34104594575229e+02°)
1.00237446725454e+02	(1.19593542022563e+02dB,-1.40520616127127e+02°)
1.26191468896039e+02	(1.16270022853509e+02dB,-1.46576658750178e+02°)
1.58865646944856e+02	(1.12758649870903e+02dB,-1.52007884765966e+02°)
2.00000000000000e+02	(1.09098399690470e+02dB,-1.56659532728075e+02°)
2.51785082358834e+02	(1.05328178550287e+02dB,-1.60480278678634e+02°)
3.16978638492223e+02	(1.01481110463599e+02dB,-1.63489680715113e+02°)
3.99052462993776e+02	(9.75827749576093e+01dB,-1.65742345183151e+02°)
5.02377286301916e+02	(9.36518987340615e+01dB,-1.67300604873249e+02°)
6.32455532033676e+02	(8.97020385637062e+01dB,-1.68217564323331e+02°)
7.96214341106995e+02	(8.57434253745312e+01dB,-1.68528034900530e+02°)
1.00237446725455e+03	(8.17846774175157e+01dB,-1.68244398419321e+02°)
1.26191468896039e+03	(7.78343877160312e+01dB,-1.67355433436244e+02°)
1.58865646944856e+03	(7.39027092340023e+01dB,-1.65827433013210e+02°)
2.00000000000000e+03	(7.00030628778260e+01dB,-1.63608244176462e+02°)
2.51785082358834e+03	(6.61539797027324e+01dB,-1.60636155797040e+02°)
3.16978638492223e+03	(6.23807984493278e+01dB,-1.56856578773507e+02°)
3.99052462993776e+03	(5.87164090805702e+01dB,-1.52249058065290e+02°)
5.02377286301917e+03	(5.51995963011884e+01dB,-1.46862990068303e+02°)
6.32455532033677e+03	(5.18694670025879e+01dB,-1.40850646128769e+02°)
7.96214341106996e+03	(4.87560861703065e+01dB,-1.34475095936392e+02°)
1.00237446725455e+04	(4.58708609557419e+01dB,-1.28073100886388e+02°)
1.26191468896039e+04	(4.32023785008419e+01dB,-1.21979798309589e+02°)
1.58865646944857e+04	(4.07206212753576e+01dB,-1.16453408912106e+02°)
2.00000000000000e+04	(3.83866176138810e+01dB,-1.11638109088563e+02°)
2.51785082358834e+04	(3.61618270169028e+01dB,-1.07571727740489e+02°)
3.16978638492223e+04	(3.40137428109946e+01dB,-1.04218261829880e+02°)
3.99052462993777e+04	(3.19176096817708e+01dB,-1.01502822777481e+02°)
5.02377286301917e+04	(2.98557901635696e+01dB,-9.93376594226231e+01°)
6.32455532033677e+04	(2.78162471451557e+01dB,-9.76376754547033e+01°)
7.96214341106996e+04	(2.57909835014469e+01dB,-9.63280552907143e+01°)
1.00237446725455e+05	(2.37747651180131e+01dB,-9.53471171556627e+01°)
1.26191468896039e+05	(2.17641797989861e+01dB,-9.46467105492120e+01°)
1.58865646944857e+05	(1.97569785738694e+01dB,-9.41915776703003e+01°)
2.00000000000000e+05	(1.77516221952696e+01dB,-9.39584560565117e+01°)
2.51785082358834e+05	(1.57469624690925e+01dB,-9.39353140124910e+01°)
3.16978638492223e+05	(1.37420015507688e+01dB,-9.41208993498524e+01°)
3.99052462993777e+05	(1.17356834641504e+01dB,-9.45246703295292e+01°)
5.02377286301917e+05	(9.72667843739448e+00dB,-9.51671134988613e+01°)
6.32455532033677e+05	(7.71312230261188e+00dB,-9.60804034098798e+01°)
7.96214341106997e+05	(5.69227086575834e+00dB,-9.73093042563908e+01°)
1.00237446725455e+06	(3.66002224197441e+00dB,-9.89121394490540e+01°)
1.26191468896039e+06	(1.61024471945627e+00dB,-1.00961525883082e+02°)
1.58865646944857e+06	(-4.66178647372691e-01dB,-1.03544249065020e+02°)
2.00000000000001e+06	(-2.58268394322091e+00dB,-1.06758860200562e+02°)
2.51785082358834e+06	(-4.75870472842028e+00dB,-1.10708220663464e+02°)
3.16978638492224e+06	(-7.02123391502663e+00dB,-1.15483316386291e+02°)
3.99052462993777e+06	(-9.40509992560213e+00dB,-1.21136670766923e+02°)
5.02377286301918e+06	(-1.19502184266597e+01dB,-1.27651104586830e+02°)
6.32455532033678e+06	(-1.46945131611661e+01dB,-1.34922226649385e+02°)
7.96214341106997e+06	(-1.76634681984580e+01dB,-1.42783474829637e+02°)
1.00237446725455e+07	(-2.08603404103647e+01dB,-1.51096217830068e+02°)
1.26191468896039e+07	(-2.42605762317476e+01dB,-1.59902403726604e+02°)
1.58865646944857e+07	(-2.78056102973574e+01dB,-1.69619802002535e+02°)
2.00000000000001e+07	(-3.13740922086074e+01dB,1.78752922255977e+02°)
2.51785082358834e+07	(-3.46872564193073e+01dB,1.63654464031008e+02°)
3.16978638492224e+07	(-3.71689808736338e+01dB,1.44239072313253e+02°)
3.99052462993777e+07	(-3.81931922778894e+01dB,1.23412044855058e+02°)
5.02377286301918e+07	(-3.78808154711863e+01dB,1.06578073712607e+02°)
6.32455532033678e+07	(-3.68949239587028e+01dB,9.59632951576887e+01°)
7.96214341106997e+07	(-3.55876843624603e+01dB,9.07952994319519e+01°)
1.00000000000000e+08	(-3.40021860840062e+01dB,8.89414963194533e+01°)
Step Information: L=2m  (Step: 5/10)
2.00000000000000e+01	(1.36711527704505e+02dB,-1.15823400380716e+02°)
2.51785082358833e+01	(1.34233535030223e+02dB,-1.21441689289417e+02°)
3.16978638492223e+01	(1.31569588194521e+02dB,-1.27609524646407e+02°)
3.99052462993776e+01	(1.28689370227430e+02dB,-1.34075482243953e+02°)
5.02377286301916e+01	(1.25580990879035e+02dB,-1.40508978622345e+02°)
6.32455532033676e+01	(1.22255374568308e+02dB,-1.46575246031321e+02°)
7.96214341106995e+01	(1.18742272246944e+02dB,-1.52011288388445e+02°)
1.00237446725454e+02	(1.15080704403549e+02dB,-1.56664158463788e+02°)
1.26191468896039e+02	(1.11309540093135e+02dB,-1.60483962138250e+02°)
1.58865646944856e+02	(1.07461829571097e+02dB,-1.63491194683422e+02°)
2.00000000000000e+02	(1.03563076007184e+02dB,-1.65740977171195e+02°)
2.51785082358834e+02	(9.96319438959723e+01dB,-1.67295860669101e+02°)
3.16978638492223e+02	(9.56819467587607e+01dB,-1.68208981269825e+02°)
3.99052462993776e+02	(9.17232907023640e+01dB,-1.68515069654644e+02°)
