Freq.	-V(Vr)/V(Vf)
Step Information: Cl=400p  (Step: 1/15)
2.00000000000000e+01	(1.11728009282798e+02dB,-8.96208667214449e+01°)
2.51785082358833e+01	(1.09728080020258e+02dB,-8.96995490913749e+01°)
3.16978638492223e+01	(1.07728124649006e+02dB,-8.97622325740358e+01°)
3.99052462993776e+01	(1.05728152801591e+02dB,-8.98122547106212e+01°)
5.02377286301916e+01	(1.03728170554456e+02dB,-8.98522790376267e+01°)
6.32455532033676e+01	(1.01728181739376e+02dB,-8.98844368375752e+01°)
7.96214341106995e+01	(9.97281887706565e+01dB,-8.99104405541466e+01°)
1.00237446725454e+02	(9.77281931659692e+01dB,-8.99316749503237e+01°)
1.26191468896039e+02	(9.57281958739939e+01dB,-8.99492708032101e+01°)
1.58865646944856e+02	(9.37281974792793e+01dB,-8.99641651525389e+01°)
2.00000000000000e+02	(9.17281983283801e+01dB,-8.99771511715712e+01°)
2.51785082358834e+02	(8.97281986045423e+01dB,-8.99889204054187e+01°)
3.16978638492223e+02	(8.77281983673079e+01dB,-9.00000996124586e+01°)
3.99052462993776e+02	(8.57281975656075e+01dB,-9.00112841210657e+01°)
5.02377286301916e+02	(8.37281960262477e+01dB,-9.00230695447121e+01°)
6.32455532033676e+02	(8.17281934170805e+01dB,-9.00360834931343e+01°)
7.96214341106995e+02	(7.97281891748063e+01dB,-9.00510189938212e+01°)
1.00237446725455e+03	(7.77281823838478e+01dB,-9.00686713928039e+01°)
1.26191468896039e+03	(7.57281715783150e+01dB,-9.00899806941717e+01°)
1.58865646944856e+03	(7.37281544259184e+01dB,-9.01160815970599e+01°)
2.00000000000000e+03	(7.17281272245254e+01dB,-9.01483638724290e+01°)
2.51785082358834e+03	(6.97280841031149e+01dB,-9.01885462748482e+01°)
3.16978638492223e+03	(6.77280157549038e+01dB,-9.02387678773867e+01°)
3.99052462993776e+03	(6.57279074297118e+01dB,-9.03017015948408e+01°)
5.02377286301917e+03	(6.37277357522448e+01dB,-9.03806957471135e+01°)
6.32455532033677e+03	(6.17274636828940e+01dB,-9.04799508167003e+01°)
7.96214341106996e+03	(5.97270325382766e+01dB,-9.06047400423714e+01°)
1.00237446725455e+04	(5.77263493634711e+01dB,-9.07616840625629e+01°)
1.26191468896039e+04	(5.57252669654178e+01dB,-9.09590911808399e+01°)
1.58865646944857e+04	(5.37235523870743e+01dB,-9.12073753004563e+01°)
2.00000000000000e+04	(5.17208372398160e+01dB,-9.15195617332645e+01°)
2.51785082358834e+04	(4.97165397285816e+01dB,-9.19118839795477e+01°)
3.16978638492223e+04	(4.77097429263481e+01dB,-9.24044563399012e+01°)
3.99052462993777e+04	(4.56990064589861e+01dB,-9.30219665801504e+01°)
5.02377286301917e+04	(4.36820794175050e+01dB,-9.37942490425267e+01°)
6.32455532033677e+04	(4.16554731219020e+01dB,-9.47564357925326e+01°)
7.96214341106996e+04	(3.96138507012309e+01dB,-9.59480874969229e+01°)
1.00237446725455e+05	(3.75492157221578e+01dB,-9.74102176032991e+01°)
1.26191468896039e+05	(3.54499765213368e+01dB,-9.91784511320006e+01°)
1.58865646944857e+05	(3.33001982745769e+01dB,-1.01269998116905e+02°)
2.00000000000000e+05	(3.10797989694907e+01dB,-1.03662704694043e+02°)
2.51785082358834e+05	(2.87670026494314e+01dB,-1.06268344258952e+02°)
3.16978638492223e+05	(2.63444421875492e+01dB,-1.08911680693646e+02°)
3.99052462993777e+05	(2.38087136862640e+01dB,-1.11338596550503e+02°)
5.02377286301917e+05	(2.11794095544010e+01dB,-1.13276099832804e+02°)
6.32455532033677e+05	(1.85004297132309e+01dB,-1.14537488021995e+02°)
7.96214341106997e+05	(1.58288975041438e+01dB,-1.15120271999474e+02°)
1.00237446725455e+06	(1.32157495091123e+01dB,-1.15231717884504e+02°)
1.26191468896039e+06	(1.06889883846779e+01dB,-1.15223833650835e+02°)
1.58865646944857e+06	(8.24806339686372e+00dB,-1.15484300832920e+02°)
2.00000000000001e+06	(5.86871688368575e+00dB,-1.16347939985259e+02°)
2.51785082358834e+06	(3.51149862694426e+00dB,-1.18056611261790e+02°)
3.16978638492224e+06	(1.12840021233029e+00dB,-1.20752134552138e+02°)
3.99052462993777e+06	(-1.33314642572906e+00dB,-1.24474314039262e+02°)
5.02377286301918e+06	(-3.92631282726983e+00dB,-1.29151221248303e+02°)
6.32455532033678e+06	(-6.69822208570057e+00dB,-1.34592478742608e+02°)
7.96214341106997e+06	(-9.68067925907292e+00dB,-1.40512001941783e+02°)
1.00237446725455e+07	(-1.28823186019854e+01dB,-1.46599888728231e+02°)
1.26191468896039e+07	(-1.62871484784225e+01dB,-1.52634296406887e+02°)
1.58865646944857e+07	(-1.98596345266298e+01dB,-1.58605375443982e+02°)
2.00000000000001e+07	(-2.35486832257907e+01dB,-1.64845352544946e+02°)
2.51785082358834e+07	(-2.72739956979463e+01dB,-1.72194953557948e+02°)
3.16978638492224e+07	(-3.08592066074755e+01dB,1.77841131672439e+02°)
3.99052462993777e+07	(-3.38639296078111e+01dB,1.63611466813864e+02°)
5.02377286301918e+07	(-3.55299592633660e+01dB,1.46280193156411e+02°)
6.32455532033678e+07	(-3.55470627623615e+01dB,1.32297984680245e+02°)
7.96214341106997e+07	(-3.45997147655695e+01dB,1.28208018950806e+02°)
1.00000000000000e+08	(-3.36643269284088e+01dB,1.44249578929141e+02°)
Step Information: Cl=600p  (Step: 2/15)
2.00000000000000e+01	(1.11728009282797e+02dB,-8.96208674452971e+01°)
2.51785082358833e+01	(1.09728080020253e+02dB,-8.96995499976289e+01°)
3.16978638492223e+01	(1.07728124649003e+02dB,-8.97622337173477e+01°)
3.99052462993776e+01	(1.05728152801593e+02dB,-8.98122561593604e+01°)
5.02377286301916e+01	(1.03728170554456e+02dB,-8.98522808563465e+01°)
6.32455532033676e+01	(1.01728181739378e+02dB,-8.98844391265965e+01°)
7.96214341106995e+01	(9.97281887706611e+01dB,-8.99104434416471e+01°)
1.00237446725454e+02	(9.77281931659756e+01dB,-8.99316785820532e+01°)
1.26191468896039e+02	(9.57281958740040e+01dB,-8.99492753761683e+01°)
1.58865646944856e+02	(9.37281974792953e+01dB,-8.99641709098706e+01°)
2.00000000000000e+02	(9.17281983284053e+01dB,-8.99771584172824e+01°)
2.51785082358834e+02	(8.97281986045824e+01dB,-8.99889295288806e+01°)
3.16978638492223e+02	(8.77281983673716e+01dB,-9.00001110975986e+01°)
3.99052462993776e+02	(8.57281975657085e+01dB,-9.00112985808242e+01°)
5.02377286301916e+02	(8.37281960264079e+01dB,-9.00230877483145e+01°)
6.32455532033676e+02	(8.17281934173344e+01dB,-9.00361064100117e+01°)
7.96214341106995e+02	(7.97281891752086e+01dB,-9.00510478448325e+01°)
1.00237446725455e+03	(7.77281823844854e+01dB,-9.00687077141478e+01°)
1.26191468896039e+03	(7.57281715793255e+01dB,-9.00900264199040e+01°)
1.58865646944856e+03	(7.37281544275199e+01dB,-9.01161391624602e+01°)
2.00000000000000e+03	(7.17281272270638e+01dB,-9.01484363427951e+01°)
2.51785082358834e+03	(6.97280841071379e+01dB,-9.01886375096807e+01°)
3.16978638492223e+03	(6.77280157612797e+01dB,-9.02388827354320e+01°)
3.99052462993776e+03	(6.57279074398166e+01dB,-9.03018461928224e+01°)
5.02377286301917e+03	(6.37277357682590e+01dB,-9.03808777855760e+01°)
6.32455532033677e+03	(6.17274637082730e+01dB,-9.04801799904082e+01°)
7.96214341106996e+03	(5.97270325784952e+01dB,-9.06050285565075e+01°)
1.00237446725455e+04	(5.77263494272015e+01dB,-9.07620472836199e+01°)
1.26191468896039e+04	(5.57252670663945e+01dB,-9.09595484556092e+01°)
1.58865646944857e+04	(5.37235525470380e+01dB,-9.12079509883065e+01°)
2.00000000000000e+04	(5.17208374931574e+01dB,-9.15202865071760e+01°)
2.51785082358834e+04	(4.97165401296392e+01dB,-9.19127964673535e+01°)
3.16978638492223e+04	(4.77097435608263e+01dB,-9.24056051964066e+01°)
3.99052462993777e+04	(4.56990074616788e+01dB,-9.30234131081437e+01°)
5.02377286301917e+04	(4.36820809994732e+01dB,-9.37960705157288e+01°)
6.32455532033677e+04	(4.16554756113197e+01dB,-9.47587296838131e+01°)
7.96214341106996e+04	(3.96138546028066e+01dB,-9.59509768838311e+01°)
1.00237446725455e+05	(3.75492217989799e+01dB,-9.74138581187908e+01°)
1.26191468896039e+05	(3.54499858972927e+01dB,-9.91830399511742e+01°)
1.58865646944857e+05	(3.33002125405995e+01dB,-1.01275785601421e+02°)
2.00000000000000e+05	(3.10798202499615e+01dB,-1.03670009383992e+02°)
2.51785082358834e+05	(2.87670335571100e+01dB,-1.06277571777874e+02°)
3.16978638492223e+05	(2.63444856097134e+01dB,-1.08923346749770e+02°)
3.99052462993777e+05	(2.38087724642365e+01dB,-1.11353353917542e+02°)
5.02377286301917e+05	(2.11794863246646e+01dB,-1.13294769859566e+02°)
6.32455532033677e+05	(1.85005272787885e+01dB,-1.14561099245145e+02°)
7.96214341106997e+05	(1.58290199362091e+01dB,-1.15150110391564e+02°)
1.00237446725455e+06	(1.32159039339995e+01dB,-1.15269393372226e+02°)
1.26191468896039e+06	(1.06891874337670e+01dB,-1.15271366451163e+02°)
1.58865646944857e+06	(8.24832862276577e+00dB,-1.15544230968923e+02°)
2.00000000000001e+06	(5.86908388744978e+00dB,-1.16423464705597e+02°)
2.51785082358834e+06	(3.51202515525135e+00dB,-1.18151757263381e+02°)
3.16978638492224e+06	(1.12917924360586e+00dB,-1.20871974306796e+02°)
3.99052462993777e+06	(-1.33196524937086e+00dB,-1.24625238118275e+02°)
5.02377286301918e+06	(-3.92448756326182e+00dB,-1.29341281372915e+02°)
6.32455532033678e+06	(-6.69535791305334e+00dB,-1.34831818726691e+02°)
7.96214341106997e+06	(-9.67612224782601e+00dB,-1.40813392451570e+02°)
1.00237446725455e+07	(-1.28749617095195e+01dB,-1.46979363784873e+02°)
1.26191468896039e+07	(-1.62750599276424e+01dB,-1.53111804422949e+02°)
1.58865646944857e+07	(-1.98393111173409e+01dB,-1.59205008677901e+02°)
2.00000000000001e+07	(-2.35135032451305e+01dB,-1.65593328325205e+02°)
2.51785082358834e+07	(-2.72111213677272e+01dB,-1.73108148771514e+02°)
3.16978638492224e+07	(-3.07449736658717e+01dB,1.76800667504916e+02°)
3.99052462993777e+07	(-3.36664937604941e+01dB,1.62658189632832e+02°)
5.02377286301918e+07	(-3.52401951560976e+01dB,1.45877186406527e+02°)
6.32455532033678e+07	(-3.51765855356301e+01dB,1.32964665444380e+02°)
7.96214341106997e+07	(-3.40614913368935e+01dB,1.31576411709844e+02°)
1.00000000000000e+08	(-3.24160111884144e+01dB,1.67842294610875e+02°)
Step Information: Cl=1n  (Step: 3/15)
2.00000000000000e+01	(1.11728009282801e+02dB,-8.96208688977949e+01°)
2.51785082358833e+01	(1.09728080020244e+02dB,-8.96995518101369e+01°)
3.16978638492223e+01	(1.07728124649009e+02dB,-8.97622360221191e+01°)
3.99052462993776e+01	(1.05728152801592e+02dB,-8.98122590448261e+01°)
5.02377286301916e+01	(1.03728170554458e+02dB,-8.98522844937861e+01°)
6.32455532033676e+01	(1.01728181739384e+02dB,-8.98844437122188e+01°)
7.96214341106995e+01	(9.97281887706695e+01dB,-8.99104492142399e+01°)
1.00237446725454e+02	(9.77281931659882e+01dB,-8.99316858474250e+01°)
1.26191468896039e+02	(9.57281958740239e+01dB,-8.99492845213249e+01°)
1.58865646944856e+02	(9.37281974793267e+01dB,-8.99641824227235e+01°)
2.00000000000000e+02	(9.17281983284551e+01dB,-8.99771729111015e+01°)
2.51785082358834e+02	(8.97281986046615e+01dB,-8.99889477765659e+01°)
3.16978638492223e+02	(8.77281983674970e+01dB,-9.00001340702983e+01°)
3.99052462993776e+02	(8.57281975659073e+01dB,-9.00113275003412e+01°)
5.02377286301916e+02	(8.37281960267229e+01dB,-9.00231241559011e+01°)
6.32455532033676e+02	(8.17281934178336e+01dB,-9.00361522443730e+01°)
7.96214341106995e+02	(7.97281891759999e+01dB,-9.00511055469753e+01°)
1.00237446725455e+03	(7.77281823857396e+01dB,-9.00687803568353e+01°)
1.26191468896039e+03	(7.57281715813134e+01dB,-9.00901178712166e+01°)
1.58865646944856e+03	(7.37281544306706e+01dB,-9.01162542930193e+01°)
2.00000000000000e+03	(7.17281272320573e+01dB,-9.01485812837663e+01°)
2.51785082358834e+03	(6.97280841150520e+01dB,-9.01888199795351e+01°)
3.16978638492223e+03	(6.77280157738227e+01dB,-9.02391124515808e+01°)
3.99052462993776e+03	(6.57279074596952e+01dB,-9.03021353887329e+01°)
5.02377286301917e+03	(6.37277357997633e+01dB,-9.03812418624726e+01°)
6.32455532033677e+03	(6.17274637582001e+01dB,-9.04806383377142e+01°)
7.96214341106996e+03	(5.97270326576149e+01dB,-9.06056055848983e+01°)
1.00237446725455e+04	(5.77263495525747e+01dB,-9.07627737258496e+01°)
1.26191468896039e+04	(5.57252672650391e+01dB,-9.09604630052247e+01°)
1.58865646944857e+04	(5.37235528617216e+01dB,-9.12091023640436e+01°)
2.00000000000000e+04	(5.17208379915286e+01dB,-9.15217360551748e+01°)
2.51785082358834e+04	(4.97165409185802e+01dB,-9.19146214433499e+01°)
3.16978638492223e+04	(4.77097448088999e+01dB,-9.24079029102420e+01°)
3.99052462993777e+04	(4.56990094339607e+01dB,-9.30263061657351e+01°)
5.02377286301917e+04	(4.36820841109272e+01dB,-9.37997134652912e+01°)
6.32455532033677e+04	(4.16554805069336e+01dB,-9.47633174726319e+01°)
7.96214341106996e+04	(3.96138622739567e+01dB,-9.59567556700327e+01°)
1.00237446725455e+05	(3.75492337431627e+01dB,-9.74211391740929e+01°)
1.26191468896039e+05	(3.54500043166237e+01dB,-9.91922176368674e+01°)
1.58865646944857e+05	(3.33002405441248e+01dB,-1.01287360661486e+02°)
2.00000000000000e+05	(3.10798619700783e+01dB,-1.03684618935828e+02°)
2.51785082358834e+05	(2.87670940330872e+01dB,-1.06296027132776e+02°)
3.16978638492223e+05	(2.63445703178582e+01dB,-1.08946679429702e+02°)
3.99052462993777e+05	(2.38088866102179e+01dB,-1.11382869635822e+02°)
5.02377286301917e+05	(2.11796344208096e+01dB,-1.13332111569752e+02°)
6.32455532033677e+05	(1.85007137220612e+01dB,-1.14608324424435e+02°)
7.96214341106997e+05	(1.58292509518879e+01dB,-1.15209791660512e+02°)
1.00237446725455e+06	(1.32161907381747e+01dB,-1.15344751788938e+02°)
1.26191468896039e+06	(1.06895504808673e+01dB,-1.15366444702325e+02°)
1.58865646944857e+06	(8.24880340360657e+00dB,-1.15664113431569e+02°)
2.00000000000001e+06	(5.86972954590870e+00dB,-1.16574554331554e+02°)
2.51785082358834e+06	(3.51293809261840e+00dB,-1.18342124098609e+02°)
3.16978638492224e+06	(1.13051520107693e+00dB,-1.21111796284079e+02°)
3.99052462993777e+06	(-1.32995476917162e+00dB,-1.24927362016502e+02°)
5.02377286301918e+06	(-3.92139413011247e+00dB,-1.29721941719703e+02°)
6.32455532033678e+06	(-6.69051075655303e+00dB,-1.35311565989590e+02°)
7.96214341106997e+06	(-9.66839998724647e+00dB,-1.41418297600807e+02°)
1.00237446725455e+07	(-1.28624405013047e+01dB,-1.47742569389360e+02°)
1.26191468896039e+07	(-1.62543209218976e+01dB,-1.54075408425244e+02°)
1.58865646944857e+07	(-1.98040063242695e+01dB,-1.60421765574888e+02°)
2.00000000000001e+07	(-2.34512836858440e+01dB,-1.67125329057122e+02°)
2.51785082358834e+07	(-2.70972205283370e+01dB,-1.75009956299252e+02°)
3.16978638492224e+07	(-3.05316470892651e+01dB,1.74559534909269e+02°)
3.99052462993777e+07	(-3.32821302925801e+01dB,1.60412293779935e+02°)
5.02377286301918e+07	(-3.46295401300731e+01dB,1.44417910659011e+02°)
6.32455532033678e+07	(-3.42375184670675e+01dB,1.33294018026228e+02°)
7.96214341106997e+07	(-3.17985055909409e+01dB,1.37950352786636e+02°)
1.00000000000000e+08	(-2.50044251022014e+01dB,6.64654027846865e+00°)
Step Information: Cl=2n  (Step: 4/15)
2.00000000000000e+01	(1.11728009282812e+02dB,-8.96208725314361e+01°)
2.51785082358833e+01	(1.09728080020249e+02dB,-8.96995563756760e+01°)
3.16978638492223e+01	(1.07728124649014e+02dB,-8.97622417689245e+01°)
3.99052462993776e+01	(1.05728152801594e+02dB,-8.98122662693017e+01°)
5.02377286301916e+01	(1.03728170554467e+02dB,-8.98522935988356e+01°)
6.32455532033676e+01	(1.01728181739396e+02dB,-8.98844551724845e+01°)
7.96214341106995e+01	(9.97281887706883e+01dB,-8.99104636397012e+01°)
1.00237446725454e+02	(9.77281931660179e+01dB,-8.99317040070287e+01°)
1.26191468896039e+02	(9.57281958740715e+01dB,-8.99493073853560e+01°)
1.58865646944856e+02	(9.37281974794021e+01dB,-8.99642112045542e+01°)
2.00000000000000e+02	(9.17281983285750e+01dB,-8.99772091463686e+01°)
2.51785082358834e+02	(8.97281986048515e+01dB,-8.99889933938754e+01°)
3.16978638492223e+02	(8.77281983677982e+01dB,-9.00001914990228e+01°)
3.99052462993776e+02	(8.57281975663847e+01dB,-9.00113997988936e+01°)
5.02377286301916e+02	(8.37281960274798e+01dB,-9.00232151744857e+01°)
6.32455532033676e+02	(8.17281934190334e+01dB,-9.00362668301244e+01°)
7.96214341106995e+02	(7.97281891779015e+01dB,-9.00512498017905e+01°)
1.00237446725455e+03	(7.77281823887535e+01dB,-9.00689619628844e+01°)
1.26191468896039e+03	(7.57281715860902e+01dB,-9.00903464999531e+01°)
1.58865646944856e+03	(7.37281544382415e+01dB,-9.01165421194152e+01°)
2.00000000000000e+03	(7.17281272440564e+01dB,-9.01489436359272e+01°)
2.51785082358834e+03	(6.97280841340692e+01dB,-9.01892761542213e+01°)
3.16978638492223e+03	(6.77280158039622e+01dB,-9.02396867419993e+01°)
3.99052462993776e+03	(6.57279075074619e+01dB,-9.03028583785775e+01°)
5.02377286301917e+03	(6.37277358754648e+01dB,-9.03821520548014e+01°)
6.32455532033677e+03	(6.17274638781698e+01dB,-9.04817842060345e+01°)
7.96214341106996e+03	(5.97270328477311e+01dB,-9.06070481558876e+01°)
1.00237446725455e+04	(5.77263498538300e+01dB,-9.07645898315247e+01°)
1.26191468896039e+04	(5.57252677423500e+01dB,-9.09627493795314e+01°)
1.58865646944857e+04	(5.37235536178401e+01dB,-9.12119808039880e+01°)
2.00000000000000e+04	(5.17208391889715e+01dB,-9.15253599263320e+01°)
2.51785082358834e+04	(4.97165428140827e+01dB,-9.19191838856090e+01°)
3.16978638492223e+04	(4.77097478072686e+01dB,-9.24136471993607e+01°)
3.99052462993777e+04	(4.56990141715617e+01dB,-9.30335388186922e+01°)
5.02377286301917e+04	(4.36820915834128e+01dB,-9.38088208570924e+01°)
6.32455532033677e+04	(4.16554922605070e+01dB,-9.47747869801425e+01°)
7.96214341106996e+04	(3.96138806818177e+01dB,-9.59712027055372e+01°)
1.00237446725455e+05	(3.75492623817445e+01dB,-9.74393419497581e+01°)
1.26191468896039e+05	(3.54500484248566e+01dB,-9.92151621184303e+01°)
1.58865646944857e+05	(3.33003074698075e+01dB,-1.01316298824974e+02°)
2.00000000000000e+05	(3.10799613653280e+01dB,-1.03721143782869e+02°)
2.51785082358834e+05	(2.87672374094389e+01dB,-1.06342167298174e+02°)
3.16978638492223e+05	(2.63447696259280e+01dB,-1.09005014297393e+02°)
3.99052462993777e+05	(2.38091520810418e+01dB,-1.11456664383297e+02°)
5.02377286301917e+05	(2.11799728965862e+01dB,-1.13425474925698e+02°)
6.32455532033677e+05	(1.85011291393029e+01dB,-1.14726402140032e+02°)
7.96214341106997e+05	(1.58297476838736e+01dB,-1.15359018630724e+02°)
1.00237446725455e+06	(1.32167790978123e+01dB,-1.15533186493721e+02°)
1.26191468896039e+06	(1.06902535236091e+01dB,-1.15604204616971e+02°)
1.58865646944857e+06	(8.24966536426741e+00dB,-1.15963930008148e+02°)
2.00000000000001e+06	(5.87082776523187e+00dB,-1.16952474786227e+02°)
2.51785082358834e+06	(3.51440176637919e+00dB,-1.18818401787214e+02°)
3.16978638492224e+06	(1.13255634684969e+00dB,-1.21712030848790e+02°)
3.99052462993777e+06	(-1.32698879844154e+00dB,-1.25683978464566e+02°)
5.02377286301918e+06	(-3.91692910618945e+00dB,-1.30676142587517e+02°)
6.32455532033678e+06	(-6.68357998715259e+00dB,-1.36515967211278e+02°)
7.96214341106997e+06	(-9.65733027188039e+00dB,-1.42940589535566e+02°)
1.00237446725455e+07	(-1.28442231333807e+01dB,-1.49670755754162e+02°)
1.26191468896039e+07	(-1.62232789211833e+01dB,-1.56525439241543e+02°)
1.58865646944857e+07	(-1.97488251377871e+01dB,-1.63548285443768e+02°)
2.00000000000001e+07	(-2.33481893189989e+01dB,-1.71133446147689e+02°)
2.51785082358834e+07	(-2.68946687046572e+01dB,1.79850124594355e+02°)
3.16978638492224e+07	(-3.01220148761185e+01dB,1.68091220004458e+02°)
3.99052462993777e+07	(-3.24815248056676e+01dB,1.52767577207846e+02°)
5.02377286301918e+07	(-3.32008457745602e+01dB,1.35813768697466e+02°)
6.32455532033678e+07	(-3.16038742050039e+01dB,1.19062626518010e+02°)
7.96214341106997e+07	(-3.05671715621305e+01dB,8.13046927023604e+01°)
1.00000000000000e+08	(-3.28154918030798e+01dB,8.43770321229384e+01°)
Step Information: Cl=5n  (Step: 5/15)
2.00000000000000e+01	(1.11728009282811e+02dB,-8.96208833988054e+01°)
2.51785082358833e+01	(1.09728080020259e+02dB,-8.96995700684858e+01°)
3.16978638492223e+01	(1.07728124649019e+02dB,-8.97622589942179e+01°)
3.99052462993776e+01	(1.05728152801610e+02dB,-8.98122879667537e+01°)
5.02377286301916e+01	(1.03728170554486e+02dB,-8.98523209044421e+01°)
6.32455532033676e+01	(1.01728181739426e+02dB,-8.98844895457024e+01°)
7.96214341106995e+01	(9.97281887707375e+01dB,-8.99105069136769e+01°)
1.00237446725454e+02	(9.77281931660974e+01dB,-8.99317584896656e+01°)
1.26191468896039e+02	(9.57281958741977e+01dB,-8.99493759736505e+01°)
1.58865646944856e+02	(9.37281974796024e+01dB,-8.99642975524601e+01°)
2.00000000000000e+02	(9.17281983288928e+01dB,-8.99773178531286e+01°)
2.51785082358834e+02	(8.97281986053555e+01dB,-8.99891302461846e+01°)
3.16978638492223e+02	(8.77281983685974e+01dB,-9.00003637854988e+01°)
3.99052462993776e+02	(8.57281975676518e+01dB,-9.00116166957520e+01°)
