Freq.	-V(Vr)/V(Vf)
Step Information: Cl=400p  (Step: 1/15)
2.00000000000000e+01	(1.11728009300002e+02dB,-8.96195217793786e+01°)
2.51785082358833e+01	(1.09728080041733e+02dB,-8.96978558884661e+01°)
3.16978638492223e+01	(1.07728124677327e+02dB,-8.97601009740148e+01°)
3.99052462993776e+01	(1.05728152840682e+02dB,-8.98095711832458e+01°)
5.02377286301916e+01	(1.03728170610602e+02dB,-8.98489006698316e+01°)
6.32455532033676e+01	(1.01728181822625e+02dB,-8.98801837297825e+01°)
7.96214341106995e+01	(9.97281888968229e+01dB,-8.99050862159806e+01°)
1.00237446725454e+02	(9.77281933601470e+01dB,-8.99249342314849e+01°)
1.26191468896039e+02	(9.57281961760013e+01dB,-8.99407847415945e+01°)
1.58865646944856e+02	(9.37281979521906e+01dB,-8.99534818339922e+01°)
2.00000000000000e+02	(9.17281990720999e+01dB,-8.99637016694526e+01°)
2.51785082358834e+02	(8.97281997774697e+01dB,-8.99719884895409e+01°)
3.16978638492223e+02	(8.77282002205437e+01dB,-8.99787835957687e+01°)
3.99052462993776e+02	(8.57282004969669e+01dB,-8.99844488514002e+01°)
5.02377286301916e+02	(8.37282006664023e+01dB,-8.99892859515926e+01°)
6.32455532033676e+02	(8.17282007654248e+01dB,-8.99935524899348e+01°)
7.96214341106995e+02	(7.97282008154052e+01dB,-8.99974756749009e+01°)
1.00237446725455e+03	(7.77282008271374e+01dB,-9.00012644305861e+01°)
1.26191468896039e+03	(7.57282008031439e+01dB,-9.00051205214709e+01°)
1.58865646944856e+03	(7.37282007382552e+01dB,-9.00092492989205e+01°)
2.00000000000000e+03	(7.17282006184621e+01dB,-9.00138706351351e+01°)
2.51785082358834e+03	(6.97282004179072e+01dB,-9.00192306329122e+01°)
3.16978638492223e+03	(6.77282000933024e+01dB,-9.00256147315307e+01°)
3.99052462993776e+03	(6.57281995745778e+01dB,-9.00333629066990e+01°)
5.02377286301917e+03	(6.37281987497691e+01dB,-9.00428877759881e+01°)
6.32455532033677e+03	(6.17281974408416e+01dB,-9.00546965710227e+01°)
7.96214341106996e+03	(5.97281953652641e+01dB,-9.00694181484799e+01°)
1.00237446725455e+04	(5.77281920750300e+01dB,-9.00878364767231e+01°)
1.26191468896039e+04	(5.57281868599548e+01dB,-9.01109323801775e+01°)
1.58865646944857e+04	(5.37281785943972e+01dB,-9.01399357626167e+01°)
2.00000000000000e+04	(5.17281654943296e+01dB,-9.01763910855215e+01°)
2.51785082358834e+04	(4.97281447323310e+01dB,-9.02222395793208e+01°)
3.16978638492223e+04	(4.77281118275090e+01dB,-9.02799225473441e+01°)
3.99052462993777e+04	(4.57280596788355e+01dB,-9.03525112271712e+01°)
5.02377286301917e+04	(4.37279770337471e+01dB,-9.04438700522408e+01°)
6.32455532033677e+04	(4.17278460626845e+01dB,-9.05588618629493e+01°)
7.96214341106996e+04	(3.97276385191295e+01dB,-9.07036057068318e+01°)
1.00237446725455e+05	(3.77273096640134e+01dB,-9.08858003833893e+01°)
1.26191468896039e+05	(3.57267886623902e+01dB,-9.11151298270968e+01°)
1.58865646944857e+05	(3.37259634274877e+01dB,-9.14037696733589e+01°)
2.00000000000000e+05	(3.17246567594296e+01dB,-9.17670175821781e+01°)
2.51785082358834e+05	(2.97225889184186e+01dB,-9.22240723327282e+01°)
3.16978638492223e+05	(2.77193192555388e+01dB,-9.27989868033736e+01°)
3.99052462993777e+05	(2.57141559535665e+01dB,-9.35218149551717e+01°)
5.02377286301917e+05	(2.37060181507658e+01dB,-9.44299585559321e+01°)
6.32455532033677e+05	(2.16932287481843e+01dB,-9.55696902232503e+01°)
7.96214341106997e+05	(1.96732090434618e+01dB,-9.69977803759006e+01°)
1.00237446725455e+06	(1.76420367664168e+01dB,-9.87830801914225e+01°)
1.26191468896039e+06	(1.55938127485585e+01dB,-1.01007777169635e+02°)
1.58865646944857e+06	(1.35197557979490e+01dB,-1.03767707756421e+02°)
2.00000000000001e+06	(1.14069414227335e+01dB,-1.07170295490873e+02°)
2.51785082358834e+06	(9.23673422088960e+00dB,-1.11327287738124e+02°)
3.16978638492224e+06	(6.98339891179304e+00dB,-1.16338483301639e+02°)
3.99052462993777e+06	(4.61409678689479e+00dB,-1.22264493795327e+02°)
5.02377286301918e+06	(2.09206434938460e+00dB,-1.29093688166359e+02°)
6.32455532033678e+06	(-6.15633409728723e-01dB,-1.36720471467468e+02°)
7.96214341106997e+06	(-3.52662873190524e+00dB,-1.44961213381852e+02°)
1.00237446725455e+07	(-6.63203258528122e+00dB,-1.53625362988110e+02°)
1.26191468896039e+07	(-9.88943334073092e+00dB,-1.62630055104366e+02°)
1.58865646944857e+07	(-1.32178981489408e+01dB,-1.72125939232601e+02°)
2.00000000000000e+07	(-1.64836012463018e+01dB,1.77383870712036e+02°)
Step Information: Cl=600p  (Step: 2/15)
2.00000000000000e+01	(1.11728009300009e+02dB,-8.96195225080242e+01°)
2.51785082358833e+01	(1.09728080041735e+02dB,-8.96978568023356e+01°)
3.16978638492223e+01	(1.07728124677325e+02dB,-8.97601021203515e+01°)
3.99052462993776e+01	(1.05728152840680e+02dB,-8.98095726223751e+01°)
5.02377286301916e+01	(1.03728170610608e+02dB,-8.98489024961853e+01°)
6.32455532033676e+01	(1.01728181822630e+02dB,-8.98801860233519e+01°)
7.96214341106995e+01	(9.97281888968273e+01dB,-8.99050890986650e+01°)
1.00237446725454e+02	(9.77281933601540e+01dB,-8.99249378613020e+01°)
1.26191468896039e+02	(9.57281961760138e+01dB,-8.99407893145535e+01°)
1.58865646944856e+02	(9.37281979522116e+01dB,-8.99534875913250e+01°)
2.00000000000000e+02	(9.17281990721337e+01dB,-8.99637089175622e+01°)
2.51785082358834e+02	(8.97281997775200e+01dB,-8.99719976133860e+01°)
3.16978638492223e+02	(8.77282002206266e+01dB,-8.99787950812149e+01°)
3.99052462993776e+02	(8.57282004970967e+01dB,-8.99844633111648e+01°)
5.02377286301916e+02	(8.37282006666088e+01dB,-8.99893041550148e+01°)
6.32455532033676e+02	(8.17282007657534e+01dB,-8.99935754069830e+01°)
7.96214341106995e+02	(7.97282008159262e+01dB,-8.99975045259478e+01°)
1.00237446725455e+03	(7.77282008279607e+01dB,-9.00013007515196e+01°)
1.26191468896039e+03	(7.57282008044550e+01dB,-9.00051662471829e+01°)
1.58865646944856e+03	(7.37282007403317e+01dB,-9.00093068641558e+01°)
2.00000000000000e+03	(7.17282006217543e+01dB,-9.00139431054809e+01°)
2.51785082358834e+03	(6.97282004231245e+01dB,-9.00193218677204e+01°)
3.16978638492223e+03	(6.77282001015681e+01dB,-9.00257295892697e+01°)
3.99052462993776e+03	(6.57281995876807e+01dB,-9.00335075041021e+01°)
5.02377286301917e+03	(6.37281987705323e+01dB,-9.00430698133134e+01°)
6.32455532033677e+03	(6.17281974737501e+01dB,-9.00549257424731e+01°)
7.96214341106996e+03	(5.97281954174226e+01dB,-9.00697066582796e+01°)
1.00237446725455e+04	(5.77281921576940e+01dB,-9.00881996890448e+01°)
1.26191468896039e+04	(5.57281869909681e+01dB,-9.01113896374489e+01°)
1.58865646944857e+04	(5.37281788020414e+01dB,-9.01405114155312e+01°)
2.00000000000000e+04	(5.17281658234233e+01dB,-9.01771157898173e+01°)
2.51785082358834e+04	(4.97281452539094e+01dB,-9.02231519284194e+01°)
3.16978638492223e+04	(4.77281126541544e+01dB,-9.02810711276922e+01°)
3.99052462993777e+04	(4.57280609889801e+01dB,-9.03539572059280e+01°)
5.02377286301917e+04	(4.37279791101873e+01dB,-9.04456904351676e+01°)
6.32455532033677e+04	(4.17278493536221e+01dB,-9.05611535962976e+01°)
7.96214341106996e+04	(3.97276437349183e+01dB,-9.07064908421959e+01°)
1.00237446725455e+05	(3.77273179304923e+01dB,-9.08894325815882e+01°)
1.26191468896039e+05	(3.57268017639029e+01dB,-9.11197025495114e+01°)
1.58865646944857e+05	(3.37259841920531e+01dB,-9.14095265011495e+01°)
2.00000000000000e+05	(3.17246896692162e+01dB,-9.17742652211335e+01°)
2.51785082358834e+05	(2.97226410773380e+01dB,-9.22331970128546e+01°)
3.16978638492223e+05	(2.77194019229166e+01dB,-9.28104749795245e+01°)
3.99052462993777e+05	(2.57142869751969e+01dB,-9.35362794768769e+01°)
5.02377286301917e+05	(2.37062258127530e+01dB,-9.44481718313681e+01°)
6.32455532033677e+05	(2.16935578870757e+01dB,-9.55926264055454e+01°)
7.96214341106997e+05	(1.96737307357014e+01dB,-9.70266693416485e+01°)
1.00237446725455e+06	(1.76428636990168e+01dB,-9.88194772312521e+01°)
1.26191468896039e+06	(1.55951236149378e+01dB,-1.01053654191432e+02°)
1.58865646944857e+06	(1.35218340505387e+01dB,-1.03825575038479e+02°)
2.00000000000001e+06	(1.14102369121963e+01dB,-1.07243368846611e+02°)
2.51785082358834e+06	(9.24196144123784e+00dB,-1.11419726827839e+02°)
3.16978638492224e+06	(6.99169409767848e+00dB,-1.16455747743757e+02°)
3.99052462993777e+06	(4.62727038074366e+00dB,-1.22413905005578e+02°)
5.02377286301918e+06	(2.11300986575252e+00dB,-1.29285368335818e+02°)
6.32455532033678e+06	(-5.82269550741134e-01dB,-1.36969004747643e+02°)
7.96214341106997e+06	(-3.47333127467195e+00dB,-1.45288749170265e+02°)
1.00237446725455e+07	(-6.54651504928052e+00dB,-1.54067734151691e+02°)
1.26191468896039e+07	(-9.75130185489211e+00dB,-1.63249582422393e+02°)
1.58865646944857e+07	(-1.29926461305495e+01dB,-1.73040376481223e+02°)
2.00000000000000e+07	(-1.61118544909522e+01dB,1.75928222962367e+02°)
Step Information: Cl=1n  (Step: 3/15)
2.00000000000000e+01	(1.11728009300007e+02dB,-8.96195239557288e+01°)
2.51785082358833e+01	(1.09728080041736e+02dB,-8.96978586262669e+01°)
3.16978638492223e+01	(1.07728124677330e+02dB,-8.97601044220986e+01°)
3.99052462993776e+01	(1.05728152840684e+02dB,-8.98095755150488e+01°)
5.02377286301916e+01	(1.03728170610612e+02dB,-8.98489061374423e+01°)
6.32455532033676e+01	(1.01728181822635e+02dB,-8.98801906074590e+01°)
7.96214341106995e+01	(9.97281888968387e+01dB,-8.99050948700546e+01°)
1.00237446725454e+02	(9.77281933601704e+01dB,-8.99249451285880e+01°)
1.26191468896039e+02	(9.57281961760408e+01dB,-8.99407984589520e+01°)
1.58865646944856e+02	(9.37281979522517e+01dB,-8.99534991047837e+01°)
2.00000000000000e+02	(9.17281990721983e+01dB,-8.99637234104259e+01°)
2.51785082358834e+02	(8.97281997776232e+01dB,-8.99720158591722e+01°)
3.16978638492223e+02	(8.77282002207884e+01dB,-8.99788180524097e+01°)
3.99052462993776e+02	(8.57282004973544e+01dB,-8.99844922302137e+01°)
5.02377286301916e+02	(8.37282006670189e+01dB,-8.99893405626226e+01°)
6.32455532033676e+02	(8.17282007664009e+01dB,-8.99936212412310e+01°)
7.96214341106995e+02	(7.97282008169574e+01dB,-8.99975622278009e+01°)
1.00237446725455e+03	(7.77282008295925e+01dB,-9.00013733940563e+01°)
1.26191468896039e+03	(7.57282008070426e+01dB,-9.00052576986828e+01°)
1.58865646944856e+03	(7.37282007444330e+01dB,-9.00094219946869e+01°)
2.00000000000000e+03	(7.17282006282524e+01dB,-9.00140880463165e+01°)
2.51785082358834e+03	(6.97282004334224e+01dB,-9.00195043372987e+01°)
3.16978638492223e+03	(6.77282001178925e+01dB,-9.00259593048990e+01°)
3.99052462993776e+03	(6.57281996135499e+01dB,-9.00337966988850e+01°)
5.02377286301917e+03	(6.37281988115368e+01dB,-9.00434338880416e+01°)
6.32455532033677e+03	(6.17281975387372e+01dB,-9.00553840853766e+01°)
7.96214341106996e+03	(5.97281955204203e+01dB,-9.00702836778360e+01°)
1.00237446725455e+04	(5.77281923209353e+01dB,-9.00889261137075e+01°)
1.26191468896039e+04	(5.57281872496882e+01dB,-9.01123041520494e+01°)
1.58865646944857e+04	(5.37281792120862e+01dB,-9.01416627214718e+01°)
2.00000000000000e+04	(5.17281664732987e+01dB,-9.01785651986885e+01°)
2.51785082358834e+04	(4.97281462838932e+01dB,-9.02249766271416e+01°)
3.16978638492223e+04	(4.77281142865698e+01dB,-9.02833682894339e+01°)
3.99052462993777e+04	(4.57280635761853e+01dB,-9.03568491654976e+01°)
5.02377286301917e+04	(4.37279832106330e+01dB,-9.04493312051093e+01°)
6.32455532033677e+04	(4.17278558523953e+01dB,-9.05657370711622e+01°)
7.96214341106996e+04	(3.97276540347906e+01dB,-9.07122611292188e+01°)
1.00237446725455e+05	(3.77273342547185e+01dB,-9.08966970104792e+01°)
1.26191468896039e+05	(3.57268276361295e+01dB,-9.11288480591851e+01°)
1.58865646944857e+05	(3.37260251969489e+01dB,-9.14210402861142e+01°)
2.00000000000000e+05	(3.17247546580484e+01dB,-9.17887607572088e+01°)
2.51785082358834e+05	(2.97227440788308e+01dB,-9.22514468882451e+01°)
3.16978638492223e+05	(2.77195651721326e+01dB,-9.28334523597355e+01°)
3.99052462993777e+05	(2.57145457149298e+01dB,-9.35652105714703e+01°)
5.02377286301917e+05	(2.37066359055838e+01dB,-9.44846024756341e+01°)
6.32455532033677e+05	(2.16942078855986e+01dB,-9.56385069398910e+01°)
7.96214341106997e+05	(1.96747610274390e+01dB,-9.70844635814113e+01°)
1.00237446725455e+06	(1.76444968864840e+01dB,-9.88923038737923e+01°)
1.26191468896039e+06	(1.55977127587919e+01dB,-1.01145473281243e+02°)
1.58865646944857e+06	(1.35259393659573e+01dB,-1.03941439623506e+02°)
2.00000000000001e+06	(1.14167479177625e+01dB,-1.07389775733958e+02°)
2.51785082358834e+06	(9.25229204294691e+00dB,-1.11605126506772e+02°)
3.16978638492224e+06	(7.00809552439151e+00dB,-1.16691324726823e+02°)
3.99052462993777e+06	(4.65333657802129e+00dB,-1.22714842815651e+02°)
5.02377286301918e+06	(2.15450219481578e+00dB,-1.29673026926650e+02°)
6.32455532033678e+06	(-5.16055643975083e-01dB,-1.37474898132806e+02°)
7.96214341106997e+06	(-3.36725058007020e+00dB,-1.45962254313713e+02°)
1.00237446725455e+07	(-6.37552928179907e+00dB,-1.54992006776048e+02°)
1.26191468896039e+07	(-9.47316229577341e+00dB,-1.64577023761935e+02°)
1.58865646944857e+07	(-1.25342639980087e+01dB,-1.75080221987837e+02°)
2.00000000000000e+07	(-1.53448410692168e+01dB,1.72460271689139e+02°)
Step Information: Cl=2n  (Step: 4/15)
2.00000000000000e+01	(1.11728009300008e+02dB,-8.96195275797836e+01°)
2.51785082358833e+01	(1.09728080041741e+02dB,-8.96978631918067e+01°)
3.16978638492223e+01	(1.07728124677331e+02dB,-8.97601101628558e+01°)
3.99052462993776e+01	(1.05728152840692e+02dB,-8.98095827491356e+01°)
5.02377286301916e+01	(1.03728170610620e+02dB,-8.98489152367680e+01°)
6.32455532033676e+01	(1.01728181822650e+02dB,-8.98802020616630e+01°)
7.96214341106995e+01	(9.97281888968623e+01dB,-8.99051092943142e+01°)
1.00237446725454e+02	(9.77281933602090e+01dB,-8.99249632862819e+01°)
1.26191468896039e+02	(9.57281961761046e+01dB,-8.99408213229871e+01°)
1.58865646944856e+02	(9.37281979523497e+01dB,-8.99535278860165e+01°)
2.00000000000000e+02	(9.17281990723563e+01dB,-8.99637596461803e+01°)
2.51785082358834e+02	(8.97281997778726e+01dB,-8.99720614780167e+01°)
3.16978638492223e+02	(8.77282002211840e+01dB,-8.99788754817578e+01°)
3.99052462993776e+02	(8.57282004979845e+01dB,-8.99845645287968e+01°)
5.02377286301916e+02	(8.37282006680142e+01dB,-8.99894315818330e+01°)
6.32455532033676e+02	(8.17282007679781e+01dB,-8.99937358267753e+01°)
7.96214341106995e+02	(7.97282008194549e+01dB,-8.99977064825541e+01°)
1.00237446725455e+03	(7.77282008335524e+01dB,-9.00015550004460e+01°)
1.26191468896039e+03	(7.57282008133160e+01dB,-9.00054863271669e+01°)
1.58865646944856e+03	(7.37282007543782e+01dB,-9.00097098210449e+01°)
2.00000000000000e+03	(7.17282006440146e+01dB,-9.00144503981904e+01°)
2.51785082358834e+03	(6.97282004584056e+01dB,-9.00199605113028e+01°)
3.16978638492223e+03	(6.77282001574850e+01dB,-9.00265335938988e+01°)
3.99052462993776e+03	(6.57281996762994e+01dB,-9.00345196859299e+01°)
5.02377286301917e+03	(6.37281989109896e+01dB,-9.00443440748310e+01°)
6.32455532033677e+03	(6.17281976963583e+01dB,-9.00565299426643e+01°)
7.96214341106996e+03	(5.97281957702338e+01dB,-9.00717262268507e+01°)
1.00237446725455e+04	(5.77281927168628e+01dB,-9.00907421755670e+01°)
1.26191468896039e+04	(5.57281878771897e+01dB,-9.01145904389361e+01°)
1.58865646944857e+04	(5.37281802066077e+01dB,-9.01445409870875e+01°)
2.00000000000000e+04	(5.17281680495120e+01dB,-9.01821887222921e+01°)
2.51785082358834e+04	(4.97281487820223e+01dB,-9.02295383768710e+01°)
3.16978638492223e+04	(4.77281182458381e+01dB,-9.02891111996187e+01°)
3.99052462993777e+04	(4.57280698512055e+01dB,-9.03640790760939e+01°)
5.02377286301917e+04	(4.37279931558764e+01dB,-9.04584331532726e+01°)
6.32455532033677e+04	(4.17278716145610e+01dB,-9.05771958048282e+01°)
7.96214341106996e+04	(3.97276790161821e+01dB,-9.07266869395843e+01°)
1.00237446725455e+05	(3.77273738476615e+01dB,-9.09148582678973e+01°)
1.26191468896039e+05	(3.57268903869810e+01dB,-9.11517122028594e+01°)
1.58865646944857e+05	(3.37261246510132e+01dB,-9.14498254857808e+01°)
2.00000000000000e+05	(3.17249122837929e+01dB,-9.18250010684665e+01°)
2.51785082358834e+05	(2.97229939030079e+01dB,-9.22970745120657e+01°)
3.16978638492223e+05	(2.77199611273394e+01dB,-9.28909016676321e+01°)
3.99052462993777e+05	(2.57151732881902e+01dB,-9.36375499967886e+01°)
5.02377286301917e+05	(2.37076306088597e+01dB,-9.45757024144380e+01°)
6.32455532033677e+05	(2.16957845515643e+01dB,-9.57532548400027e+01°)
7.96214341106997e+05	(1.96772602953897e+01dB,-9.72290421472223e+01°)
1.00237446725455e+06	(1.76484590163001e+01dB,-9.90745561576974e+01°)
1.26191468896039e+06	(1.56039949668566e+01dB,-1.01375392067620e+02°)
1.58865646944857e+06	(1.35359026662960e+01dB,-1.04231843310208e+02°)
2.00000000000001e+06	(1.14325554481044e+01dB,-1.07757279780938e+02°)
2.51785082358834e+06	(9.27738741989276e+00dB,-1.12071611065041e+02°)
3.16978638492224e+06	(7.04797492798117e+00dB,-1.17286283556608e+02°)
3.99052462993777e+06	(4.71680753868035e+00dB,-1.23479383242823e+02°)
5.02377286301918e+06	(2.25576713287756e+00dB,-1.30667126664204e+02°)
6.32455532033678e+06	(-3.53874316119978e-01dB,-1.38791445921136e+02°)
7.96214341106997e+06	(-3.10596498414197e+00dB,-1.47756162791777e+02°)
1.00237446725455e+07	(-5.95077812159822e+00dB,-1.57545753927210e+02°)
1.26191468896039e+07	(-8.77376110823636e+00dB,-1.68464930475152e+02°)
1.58865646944857e+07	(-1.13658906815376e+01dB,1.78355570742341e+02°)
2.00000000000000e+07	(-1.34098855673824e+01dB,1.59472163010363e+02°)
Step Information: Cl=5n  (Step: 5/15)
2.00000000000000e+01	(1.11728009300008e+02dB,-8.96195384471546e+01°)
2.51785082358833e+01	(1.09728080041736e+02dB,-8.96978768655803e+01°)
3.16978638492223e+01	(1.07728124677343e+02dB,-8.97601273942009e+01°)
3.99052462993776e+01	(1.05728152840707e+02dB,-8.98096044369809e+01°)
5.02377286301916e+01	(1.03728170610648e+02dB,-8.98489425423788e+01°)
6.32455532033676e+01	(1.01728181822693e+02dB,-8.98802364394340e+01°)
7.96214341106995e+01	(9.97281888969304e+01dB,-8.99051525707052e+01°)
1.00237446725454e+02	(9.77281933603175e+01dB,-8.99250177679716e+01°)
1.26191468896039e+02	(9.57281961762746e+01dB,-8.99408899097745e+01°)
1.58865646944856e+02	(9.37281979526238e+01dB,-8.99536142351463e+01°)
2.00000000000000e+02	(9.17281990727872e+01dB,-8.99638683520056e+01°)
2.51785082358834e+02	(8.97281997785541e+01dB,-8.99721983292194e+01°)
3.16978638492223e+02	(8.77282002222671e+01dB,-8.99790477688949e+01°)
3.99052462993776e+02	(8.57282004996999e+01dB,-8.99847814250270e+01°)
5.02377286301916e+02	(8.37282006707354e+01dB,-8.99897046375561e+01°)
6.32455532033676e+02	(8.17282007722921e+01dB,-8.99940795840151e+01°)
7.96214341106995e+02	(7.97282008262889e+01dB,-8.99981392474163e+01°)
1.00237446725455e+03	(7.77282008443850e+01dB,-9.00020998187551e+01°)
1.26191468896039e+03	(7.57282008304869e+01dB,-9.00061722129244e+01°)
1.58865646944856e+03	(7.37282007815910e+01dB,-9.00105732998799e+01°)
2.00000000000000e+03	(7.17282006871444e+01dB,-9.00155374537199e+01°)
2.51785082358834e+03	(6.97282005267613e+01dB,-9.00213290331698e+01°)
3.16978638492223e+03	(6.77282002658243e+01dB,-9.00282564609419e+01°)
3.99052462993776e+03	(6.57281998480082e+01dB,-9.00366886471383e+01°)
5.02377286301917e+03	(6.37281991831296e+01dB,-9.00470746353448e+01°)
6.32455532033677e+03	(6.17281981276694e+01dB,-9.00599675150049e+01°)
7.96214341106996e+03	(5.97281964538137e+01dB,-9.00760538746435e+01°)
1.00237446725455e+04	(5.77281938002651e+01dB,-9.00961903626026e+01°)
1.26191468896039e+04	(5.57281895942694e+01dB,-9.01214493025736e+01°)
1.58865646944857e+04	(5.37281829279961e+01dB,-9.01531757898356e+01°)
2.00000000000000e+04	(5.17281723626224e+01dB,-9.01930593049091e+01°)
2.51785082358834e+04	(4.97281556178437e+01dB,-9.02432236495814e+01°)
3.16978638492223e+04	(4.77281290798901e+01dB,-9.03063399771058e+01°)
3.99052462993777e+04	(4.57280870220315e+01dB,-9.03857689015076e+01°)
5.02377286301917e+04	(4.37280203698295e+01dB,-9.04857391845345e+01°)
6.32455532033677e+04	(4.17279147458384e+01dB,-9.06115723784707e+01°)
7.96214341106996e+04	(3.97277473748224e+01dB,-9.07699651141996e+01°)
1.00237446725455e+05	(3.77274821892371e+01dB,-9.09693435236957e+01°)
1.26191468896039e+05	(3.57270620978911e+01dB,-9.12203075940376e+01°)
1.58865646944857e+05	(3.37263967971890e+01dB,-9.15361869913020e+01°)
2.00000000000000e+05	(3.17253436132539e+01dB,-9.19337337880754e+01°)
2.51785082358834e+05	(2.97236775313135e+01dB,-9.24339809018008e+01°)
